<resources>
    <string name="app_name">RobotApk</string>

    <string name="minutes">分钟</string>
    <string name="not_work">Waiting</string>
    <string name="done">Done</string>
    <string name="ongoing">Ongoing</string>
    <string name="stop_initialize">停止初始化</string>
    <string name="get_mapIcon">获取地图图片</string>
    <string name="get_robotPosition">获取机器人位置</string>
    <string name="get_mapList">获取地图列表</string>
    <string name="navigate_position">导航到导航点</string>
    <string name="start_scanMap">开始扫描</string>
    <string name="develop_map">拓展扫描</string>
    <string name="get_scanMap">扫描地图</string>
    <string name="stop_scanSaveMap">取消扫描并且保存地图</string>
    <string name="stop_scanMap">取消扫描并且不保存地图</string>
    <string name="delete_map">删除地图</string>
    <string name="rename_map">重命名地图</string>
    <string name="save_task">存储任务</string>
    <string name="start_task">开始执行任务</string>
    <string name="stop_task">停止任务</string>
    <string name="delete_task">删除任务</string>
    <string name="get_taskList">获取任务列表</string>
    <string name="add_position">添加点</string>
    <string name="delete_position">删除点</string>
    <string name="rename_position">重命名点</string>
    <string name="get_mapPositionList">获取地图导航点</string>
    <string name="stop_navigate">取消导航</string>
    <string name="use_map">应用地图成功</string>
    <string name="task_finish">任务完成</string>
    <string name="is_initialize">正在初始化</string>
    <string name="finish_initialize">初始化完成</string>
    <string name="fail_initialize">初始化失败</string>
    <string name="arrive_location">到达位置开始消毒</string>
    <string name="position_fail">定位失败</string>
    <string name="virtual_obstacle">获取虚拟墙数据</string>
    <string name="add_virtual_obstacle">添加虚拟墙虚拟强数据</string>
    <string name="set_speed_level">设置导航速度</string>
    <string name="device_status">获取设备信息</string>
    <string name="robot_state">机器人状态</string>
    <string name="reset_robot">恢复出厂设置</string>
    <string name="get_ultrasonic_phit">获取声呐设备信息</string>
    <string name="have_charging_mode">无充电桩模式</string>


    <string name="a_password1">01 06 21 19 26 94 49 FE</string>
    <string name="a_password2">01 06 21 19 26 8E C8 35</string>

    <string name="b_password1">01 06 31 19 26 94 4D 3E</string>
    <string name="b_password2">01 06 21 19 26 8E CC F5</string>
    
    <string name="temp_request">01 43 50 1B 51 1B 58 99</string>
    
    <string name="a_flow_20A">01 06 24 2A 07 D0 A1 5E</string>
    <string name="a_flow_7A">01 06 24 2A 02 BC A2 23</string>
    <string name="a_flow_5A">01 06 24 2A 01 F4 A2 E5</string>
    <string name="a_flow_0A">01 06 24 2A 00 00 A2 F2</string>

    <string name="b_flow_20A">01 06 34 2A 07 D0 A5 9E</string>
    <string name="b_flow_7A">01 06 34 2A 02 BC A6 E3</string>
    <string name="b_flow_5A">01 06 34 2A 01 F4 A6 25</string>
    <string name="b_flow_0A">01 06 34 2A 00 00 A6 32</string>
</resources>