<resources>
    <string name="app_name">RobotApk</string>

    <string name="not_work">Waiting</string>
    <string name="done">Done</string>
    <string name="ongoing">Ongoing</string>
    <string name="stop_initialize">stop initialize</string>
    <string name="get_mapIcon">get map picture</string>
    <string name="get_robotPosition">get robot position</string>
    <string name="get_mapList">get map list</string>
    <string name="navigate_position">navigate to point</string>
    <string name="start_scanMap">start scan map</string>
    <string name="develop_map">develop map</string>
    <string name="get_scanMap">get scan map picture</string>
    <string name="stop_scanSaveMap">save map</string>
    <string name="stop_scanMap">cancel map</string>
    <string name="delete_map">delete map</string>
    <string name="rename_map">rename map</string>
    <string name="save_task">save taskQueue</string>
    <string name="start_task">start taskQueue</string>
    <string name="stop_task">stop taskQueue</string>
    <string name="delete_task">delete taskQueue</string>
    <string name="get_taskList">get taskQueue</string>
    <string name="add_position">add point</string>
    <string name="delete_position">delete point</string>
    <string name="rename_position">rename point</string>
    <string name="get_mapPositionList">get AllPoint</string>
    <string name="stop_navigate">stop navigate</string>
    <string name="use_map">use map</string>
    <string name="task_finish">task finish</string>
    <string name="arrive_location">arrive at point</string>
    <string name="virtual_obstacle">get virtual obstacle</string>
    <string name="add_virtual_obstacle">add virtual obstacle</string>
    <string name="set_speed_level">set speed level</string>
    <string name="device_status">get device status</string>
    <string name="reset_robot">reset robot</string>
    <string name="get_ultrasonic_phit">get ultrasonic phit</string>
    <string name="have_charging_mode">No charging pile</string>
    <string name="start_update">start update</string>


    <string name="a_password1">01 06 21 19 26 94 49 FE</string>
    <string name="a_password2">01 06 21 19 26 8E C8 35</string>

    <string name="b_password1">01 06 31 19 26 94 4D 3E</string>
    <string name="b_password2">01 06 21 19 26 8E CC F5</string>
    
    <string name="temp_request">01 43 50 1B 51 1B 58 99</string>
    
    <string name="a_flow_20A">01 06 24 2A 07 D0 A1 5E</string>
    <string name="a_flow_7A">01 06 24 2A 02 BC A2 23</string>
    <string name="a_flow_5A">01 06 24 2A 01 F4 A2 E5</string>
    <string name="a_flow_0A">01 06 24 2A 00 00 A2 F2</string>

    <string name="b_flow_20A">01 06 34 2A 07 D0 A5 9E</string>
    <string name="b_flow_7A">01 06 34 2A 02 BC A6 E3</string>
    <string name="b_flow_5A">01 06 34 2A 01 F4 A6 25</string>
    <string name="b_flow_0A">01 06 34 2A 00 00 A6 32</string>

    <string name="open_factory">DD 5A 00 02 56 78 FF 30 77</string>
    <string name="close_factory">DD 5A 01 02 28 28 FF AD 77</string>
    <string name="read_battery_an">DD A5 28 00 FF D8 77</string>
    <string name="write_25a_battery">DD 5A 28 02 09 C4 FF 09 77</string>

</resources>